Sample in Buffer,Sample in Window,TRIGGER,sig_AD2_IN[9:0],sig_AD1_IN[9:0],LED_IO_OBUF[2:0]
0,0,0,196,-15,2
1,1,0,132,157,2
2,2,0,-200,38,2
3,3,0,-131,13,2
4,4,0,201,-124,2
5,5,0,127,-91,2
6,6,0,-206,87,2
7,7,0,-124,-24,2
8,8,0,206,-24,2
9,9,0,120,-7,2
10,10,0,-210,79,2
11,11,0,-115,76,2
12,12,0,210,-74,2
13,13,0,108,-43,2
14,14,0,-213,43,2
15,15,0,-109,19,2
16,16,0,215,-16,2
17,17,0,102,-2,2
18,18,0,-219,-37,2
19,19,0,-99,-33,2
20,20,0,219,22,2
21,21,0,95,21,2
22,22,0,-220,-30,2
23,23,0,-93,-21,2
24,24,0,220,-11,2
25,25,0,87,34,2
26,26,0,-223,-49,2
27,27,0,-89,120,2
28,28,0,222,156,2
29,29,0,83,-127,2
30,30,0,-227,-48,2
31,31,0,-84,-80,2
32,32,0,226,-52,2
33,33,0,79,20,2
34,34,0,-230,56,2
35,35,0,-75,61,2
36,36,0,228,-123,2
37,37,0,68,55,2
38,38,0,-232,97,2
39,39,0,-69,-114,2
40,40,0,230,-27,2
41,41,0,63,86,2
42,42,0,-232,20,2
43,43,0,-61,-93,2
44,44,0,230,13,2
45,45,0,58,41,2
46,46,0,-236,-51,2
47,47,0,-57,56,2
48,48,0,235,16,2
49,49,0,51,-75,2
50,50,0,-236,50,2
51,51,0,-49,25,2
52,52,0,236,-76,2
53,53,0,42,-59,2
54,54,0,-237,93,2
55,55,0,-40,71,2
56,56,0,237,-164,2
57,57,0,35,-94,2
58,58,0,-239,200,2
59,59,0,-32,162,2
60,60,0,238,-126,2
61,61,0,25,41,2
62,62,0,-239,-27,2
63,63,0,-24,-182,2
64,64,0,238,126,2
65,65,0,19,-95,2
66,66,0,-239,-68,2
67,67,0,-19,105,2
68,68,0,237,29,2
69,69,0,16,43,2
70,70,0,-240,-9,2
71,71,0,-15,37,2
72,72,0,239,-10,2
73,73,0,11,-22,2
74,74,0,-241,-73,2
75,75,0,-11,-4,2
76,76,0,242,4,2
77,77,0,6,-99,2
78,78,0,-243,99,2
79,79,0,-5,132,2
80,80,0,241,-28,2
81,81,0,2,-79,2
82,82,0,-242,-37,2
83,83,0,0,43,2
84,84,0,237,13,2
85,85,0,-5,25,2
86,86,0,-242,-43,2
87,87,0,6,-175,2
88,88,0,241,-12,2
89,89,0,-12,148,2
90,90,0,-240,193,2
91,91,0,15,68,2
92,92,0,238,-70,2
93,93,0,-19,-193,2
94,94,0,-240,-53,2
95,95,0,23,78,2
96,96,0,239,-82,2
97,97,0,-31,-45,2
98,98,0,-235,47,2
99,99,0,32,127,2
100,100,0,234,72,2
101,101,0,-38,-25,2
102,102,0,-234,-104,2
103,103,0,39,-141,2
104,104,0,232,156,2
105,105,0,-43,48,2
106,106,0,-234,-65,2
107,107,0,46,12,2
108,108,0,232,-3,2
109,109,0,-53,88,2
110,110,0,-231,-38,2
111,111,0,53,-164,2
112,112,0,231,-58,2
113,113,0,-58,80,2
114,114,0,-229,96,2
115,115,0,59,58,2
116,116,0,227,1,2
117,117,0,-64,-2,2
118,118,0,-229,-163,2
119,119,0,68,-50,2
120,120,0,225,134,2
121,121,0,-74,-83,2
122,122,0,-225,83,2
123,123,0,77,228,2
124,124,0,222,-80,2
125,125,0,-81,-258,2
126,126,0,-222,-63,2
127,127,0,82,74,2
128,128,0,220,84,2
129,129,0,-88,-12,2
130,130,0,-223,12,2
131,131,0,91,49,2
132,132,0,219,-145,2
133,133,0,-98,-2,2
134,134,0,-220,171,2
135,135,0,102,-23,2
136,136,0,213,-24,2
137,137,0,-108,42,2
138,138,0,-213,24,2
139,139,0,109,-165,2
140,140,0,208,-67,2
141,141,0,-116,150,2
142,142,0,-208,-65,2
143,143,0,119,-29,2
144,144,0,203,46,2
145,145,0,-125,35,2
146,146,0,-202,-33,2
147,147,0,128,41,2
148,148,0,198,44,2
149,149,0,-132,-77,2
150,150,0,-198,-9,2
151,151,0,132,-19,2
152,152,0,196,38,2
153,153,0,-140,-25,2
154,154,0,-195,15,2
155,155,0,141,58,2
156,156,0,190,-48,2
157,157,0,-147,-49,2
158,158,0,-191,-47,2
159,159,0,150,1,2
160,160,0,183,-61,2
161,161,0,-153,175,2
162,162,0,-182,80,2
163,163,0,153,-290,2
164,164,0,178,156,2
165,165,0,-161,125,2
166,166,0,-176,-114,2
167,167,0,161,-54,2
168,168,0,173,-16,2
169,169,0,-166,51,2
170,170,0,-173,-88,2
171,171,0,166,150,2
172,172,0,166,-56,2
173,173,0,-171,-144,2
174,174,0,-167,146,2
175,175,0,171,5,2
176,176,0,165,-56,2
177,177,0,-175,-108,2
178,178,0,-162,104,2
179,179,0,176,135,2
180,180,0,158,-7,2
181,181,0,-179,4,2
182,182,0,-159,-57,2
183,183,0,180,-53,2
184,184,0,154,75,2
185,185,0,-186,-22,2
186,186,0,-153,-224,2
187,187,0,186,-38,2
188,188,0,148,156,2
189,189,0,-193,125,2
190,190,0,-144,32,2
191,191,0,193,-36,2
192,192,0,139,-33,2
193,193,0,-196,-38,2
194,194,0,-138,51,2
195,195,0,196,114,2
196,196,0,134,-166,2
197,197,0,-201,-180,2
198,198,0,-132,83,2
199,199,0,198,125,2
200,200,0,128,52,2
201,201,0,-205,-46,2
202,202,0,-127,-17,2
203,203,0,205,-33,2
204,204,0,121,-97,2
205,205,0,-208,-48,2
206,206,0,-121,127,2
207,207,0,206,130,2
208,208,0,116,-14,2
209,209,0,-212,26,2
210,210,0,-113,8,2
211,211,0,212,-190,2
212,212,0,109,-133,2
213,213,0,-215,71,2
214,214,0,-108,24,2
215,215,0,216,37,2
216,216,0,101,81,2
217,217,0,-218,136,2
218,218,0,-101,-102,2
219,219,0,219,-102,2
220,220,0,94,58,2
221,221,0,-222,-127,2
222,222,0,-91,-93,2
223,223,0,223,125,2
224,224,0,85,165,2
225,225,0,-225,-64,2
226,226,0,-85,-45,2
227,227,0,226,55,2
228,228,0,77,-22,2
229,229,0,-228,-52,2
230,230,0,-76,9,2
231,231,0,226,-19,2
232,232,0,73,-98,2
233,233,0,-230,1,2
234,234,0,-72,136,2
235,235,0,229,52,2
236,236,0,68,-43,2
237,237,0,-231,17,2
238,238,0,-69,-81,2
239,239,0,231,-82,2
240,240,0,62,112,2
241,241,0,-232,61,2
242,242,0,-63,-40,2
243,243,0,233,67,2
244,244,0,59,-50,2
245,245,0,-234,-169,2
246,246,0,-55,-6,2
247,247,0,234,33,2
248,248,0,51,51,2
249,249,0,-235,-29,2
250,250,0,-48,105,2
251,251,0,235,89,2
252,252,0,45,-21,2
253,253,0,-237,118,2
254,254,0,-40,-170,2
255,255,0,235,-346,2
256,256,0,35,-45,2
257,257,0,-236,223,2
258,258,0,-33,173,2
259,259,0,236,-6,2
260,260,0,27,-17,2
261,261,0,-239,32,2
262,262,0,-26,15,2
263,263,0,236,-90,2
264,264,0,23,-101,2
265,265,0,-241,31,2
266,266,0,-21,-1,2
267,267,0,240,86,2
268,268,0,16,3,2
269,269,0,-242,-189,2
270,270,0,-11,120,2
271,271,0,239,148,2
272,272,0,8,-7,2
273,273,0,-240,-90,2
274,274,0,-6,-41,2
275,275,0,239,-16,2
276,276,0,0,-24,2
277,277,0,-240,169,2
278,278,0,2,10,2
279,279,0,240,-151,2
280,280,0,-9,-149,2
281,281,0,-242,92,2
282,282,0,11,128,2
283,283,0,237,-119,2
284,284,0,-14,160,2
285,285,0,-239,33,2
286,286,0,14,-130,2
287,287,0,238,96,2
288,288,0,-19,-29,2
289,289,0,-238,-65,2
290,290,0,20,-6,2
291,291,0,238,40,2
292,292,0,-25,-84,2
293,293,0,-240,-65,2
294,294,0,28,118,2
295,295,0,236,-11,2
296,296,0,-37,1,2
297,297,0,-238,-20,2
298,298,0,40,39,2
299,299,0,233,86,2
300,300,0,-46,-92,2
301,301,0,-234,134,2
302,302,0,47,-54,2
303,303,0,232,-202,2
304,304,0,-54,49,2
305,305,0,-229,29,2
306,306,0,57,-64,2
307,307,0,227,-47,2
308,308,0,-63,78,2
309,309,0,-228,140,2
310,310,0,66,-18,2
311,311,0,226,13,2
312,312,0,-70,91,2
313,313,0,-226,-217,2
314,314,0,70,-240,2
315,315,0,225,166,2
316,316,0,-74,160,2
317,317,0,-225,-75,2
318,318,0,77,55,2
319,319,0,224,16,2
320,320,0,-79,-8,2
321,321,0,-224,67,2
322,322,0,82,-84,2
323,323,0,222,-110,2
324,324,0,-90,-89,2
325,325,0,-222,79,2
326,326,0,92,9,2
327,327,0,219,-12,2
328,328,0,-98,185,2
329,329,0,-217,-19,2
330,330,0,104,-152,2
331,331,0,212,72,2
332,332,0,-109,163,2
333,333,0,-211,-130,2
334,334,0,110,-112,2
335,335,0,209,123,2
336,336,0,-119,-126,2
337,337,0,-205,-59,2
338,338,0,120,54,2
339,339,0,202,38,2
340,340,0,-124,112,2
341,341,0,-201,14,2
342,342,0,126,-79,2
343,343,0,199,-151,2
344,344,0,-128,-73,2
345,345,0,-200,106,2
346,346,0,132,192,2
347,347,0,195,64,2
348,348,0,-137,-38,2
349,349,0,-195,-107,2
350,350,0,140,-70,2
351,351,0,192,-10,2
352,352,0,-147,-22,2
353,353,0,-189,10,2
354,354,0,149,9,2
355,355,0,186,5,2
356,356,0,-154,41,2
357,357,0,-181,57,2
358,358,0,153,-24,2
359,359,0,179,-57,2
360,360,0,-159,9,2
361,361,0,-177,82,2
362,362,0,160,-72,2
363,363,0,172,5,2
364,364,0,-166,41,2
365,365,0,-171,-93,2
366,366,0,165,38,2
367,367,0,167,-9,2
368,368,0,-172,-9,2
369,369,0,-167,-35,2
370,370,0,172,111,2
371,371,0,160,27,2
372,372,0,-176,-160,2
373,373,0,-163,45,2
374,374,0,176,37,2
375,375,0,158,36,2
376,376,0,-183,-99,2
377,377,0,-155,-37,2
378,378,0,183,107,2
379,379,0,149,-13,2
380,380,0,-188,105,2
381,381,0,-148,-51,2
382,382,0,189,-100,2
383,383,0,144,84,2
384,384,0,-191,12,2
385,385,0,-144,-144,2
386,386,0,193,-91,2
387,387,0,136,107,2
388,388,0,-197,5,2
389,389,0,-137,65,2
390,390,0,197,37,2
391,391,0,133,-33,2
392,392,0,-202,114,2
393,393,0,-134,-60,2
394,394,0,202,-20,2
395,395,0,126,-57,2
396,396,0,-205,-117,2
397,397,0,-127,120,2
398,398,0,205,128,2
399,399,0,123,-17,2
400,400,0,-208,-192,2
401,401,0,-122,-130,2
402,402,0,209,160,2
403,403,0,115,74,2
404,404,0,-213,-70,2
405,405,0,-114,36,2
406,406,0,215,28,2
407,407,0,106,163,2
408,408,0,-216,16,2
409,409,0,-104,-99,2
410,410,0,214,-111,2
411,411,0,97,-152,2
412,412,0,-219,86,2
413,413,0,-99,129,2
414,414,0,219,16,2
415,415,0,91,-163,2
416,416,0,-223,49,2
417,417,0,-91,202,2
418,418,0,221,-126,2
419,419,0,83,-34,2
420,420,0,-224,-24,2
421,421,0,-83,-116,2
422,422,0,222,199,2
423,423,0,78,118,2
424,424,0,-227,-121,2
425,425,0,-77,-50,2
426,426,0,226,63,2
427,427,0,74,31,2
428,428,0,-230,-6,2
429,429,0,-72,-112,2
430,430,0,230,-101,2
431,431,0,64,119,2
432,432,0,-231,-28,2
433,433,0,-63,-34,2
434,434,0,231,73,2
435,435,0,57,44,2
436,436,0,-233,85,2
437,437,0,-56,-71,2
438,438,0,232,-41,2
439,439,0,53,103,2
440,440,0,-234,-30,2
441,441,0,-53,-113,2
442,442,0,233,-155,2
443,443,0,49,71,2
444,444,0,-237,152,2
445,445,0,-46,-56,2
446,446,0,235,59,2
447,447,0,42,2,2
448,448,0,-237,-38,2
449,449,0,-41,43,2
450,450,0,236,-34,2
451,451,0,35,-54,2
452,452,0,-240,-43,2
453,453,0,-34,-6,2
454,454,0,239,75,2
455,455,0,29,37,2
456,456,0,-238,16,2
457,457,0,-28,58,2
458,458,0,240,-80,2
459,459,0,20,-98,2
460,460,0,-240,49,2
461,461,0,-17,-62,2
462,462,0,237,-1,2
463,463,0,12,193,2
464,464,0,-240,-11,2
465,465,0,-10,-93,2
466,466,0,239,-68,2
467,467,0,5,51,2
468,468,0,-240,124,2
469,469,0,-1,-51,2
470,470,0,237,-128,2
471,471,0,-7,27,2
472,472,0,-240,25,2
473,473,0,8,-39,2
474,474,0,239,59,2
475,475,0,-12,94,2
476,476,0,-238,9,2
477,477,0,15,-98,2
478,478,0,235,-35,2
479,479,0,-18,1,2
480,480,0,-241,66,2
481,481,0,20,27,2
482,482,0,236,-135,2
483,483,0,-23,-93,2
484,484,0,-237,170,2
485,485,0,25,87,2
486,486,0,238,-199,2
487,487,0,-33,23,2
488,488,0,-238,249,2
489,489,0,34,-25,2
490,490,0,234,-116,2
491,491,0,-39,16,2
492,492,0,-235,-58,2
493,493,0,40,-77,2
494,494,0,231,-40,2
495,495,0,-48,56,2
496,496,0,-234,9,2
497,497,0,47,-21,2
498,498,0,230,12,2
499,499,0,-53,104,2
500,500,0,-230,92,2
501,501,0,55,79,2
502,502,0,228,-30,2
503,503,0,-59,-103,2
504,504,0,-229,-60,2
505,505,0,58,-158,2
506,506,0,228,-42,2
507,507,0,-64,7,2
508,508,0,-229,96,2
509,509,0,65,177,2
510,510,0,228,30,2
511,511,0,-75,-125,2
512,512,0,-227,35,2
513,513,0,76,32,2
514,514,0,225,-109,2
515,515,0,-81,71,2
516,516,0,-224,1,2
517,517,0,84,-4,2
518,518,0,219,-7,2
519,519,0,-89,-48,2
520,520,0,-220,35,2
521,521,0,91,-62,2
522,522,0,217,-72,2
523,523,0,-99,67,2
524,524,0,-218,70,2
525,525,0,102,35,2
526,526,0,215,19,2
527,527,0,-107,-41,2
528,528,0,-215,-85,2
529,529,0,110,143,2
530,530,0,209,-41,2
531,531,0,-118,-54,2
532,532,0,-205,141,2
533,533,0,119,-146,2
534,534,0,204,-56,2
535,535,0,-122,-20,2
536,536,0,-202,15,2
537,537,0,123,205,2
538,538,0,201,-23,2
539,539,0,-126,-133,2
540,540,0,-202,34,2
541,541,0,129,-19,2
542,542,0,197,8,2
543,543,0,-136,50,2
544,544,0,-199,-34,2
545,545,0,138,-56,2
546,546,0,194,2,2
547,547,0,-145,59,2
548,548,0,-192,-34,2
549,549,0,146,11,2
550,550,0,186,143,2
551,551,0,-150,-71,2
552,552,0,-185,-170,2
553,553,0,153,26,2
554,554,0,179,35,2
555,555,0,-160,18,2
556,556,0,-178,38,2
557,557,0,161,12,2
558,558,0,173,-47,2
559,559,0,-166,1,2
560,560,0,-172,-1,2
561,561,0,166,79,2
562,562,0,165,5,2
563,563,0,-170,-56,2
564,564,0,-166,-10,2
565,565,0,172,-99,2
566,566,0,164,30,2
567,567,0,-174,37,2
568,568,0,-164,16,2
569,569,0,177,-140,2
570,570,0,158,-4,2
571,571,0,-182,249,2
572,572,0,-157,58,2
573,573,0,182,-78,2
574,574,0,153,-106,2
575,575,0,-185,32,2
576,576,0,-153,68,2
577,577,0,188,-117,2
578,578,0,145,-87,2
579,579,0,-192,-5,2
580,580,0,-144,91,2
581,581,0,193,97,2
582,582,0,141,-136,2
583,583,0,-197,-57,2
584,584,0,-138,132,2
585,585,0,195,45,2
586,586,0,135,36,2
587,587,0,-200,-33,2
588,588,0,-131,-74,2
589,589,0,202,-47,2
590,590,0,127,-5,2
591,591,0,-205,91,2
592,592,0,-123,-87,2
593,593,0,204,-22,2
594,594,0,119,90,2
595,595,0,-209,-31,2
596,596,0,-117,49,2
597,597,0,208,-31,2
598,598,0,110,-107,2
599,599,0,-212,94,2
600,600,0,-111,-62,2
601,601,0,212,19,2
602,602,0,105,13,2
603,603,0,-218,50,2
604,604,0,-104,97,2
605,605,0,217,-1,2
606,606,0,98,13,2
607,607,0,-221,-185,2
608,608,0,-98,-91,2
609,609,0,220,-29,2
610,610,0,93,12,2
611,611,0,-222,159,2
612,612,0,-92,104,2
613,613,0,223,-3,2
614,614,0,87,-106,2
615,615,0,-225,40,2
616,616,0,-84,0,2
617,617,0,223,-184,2
618,618,0,80,-3,2
619,619,0,-227,78,2
620,620,0,-79,-2,2
621,621,0,226,150,2
622,622,0,73,164,2
623,623,0,-229,-180,2
624,624,0,-73,-145,2
625,625,0,229,61,2
626,626,0,68,-18,2
627,627,0,-232,-32,2
628,628,0,-65,48,2
629,629,0,231,-11,2
630,630,0,60,-87,2
631,631,0,-233,14,2
632,632,0,-59,138,2
633,633,0,234,50,2
634,634,0,54,-16,2
635,635,0,-233,-55,2
636,636,0,-53,-117,2
637,637,0,232,39,2
638,638,0,51,119,2
639,639,0,-233,-34,2
640,640,0,-50,25,2
641,641,0,233,-95,2
642,642,0,46,-126,2
643,643,0,-236,78,2
644,644,0,-48,58,2
645,645,0,238,68,2
646,646,0,40,-16,2
647,647,0,-240,9,2
648,648,0,-35,-33,2
649,649,0,240,-98,2
650,650,0,26,54,2
651,651,0,-240,-39,2
652,652,0,-24,86,2
653,653,0,239,119,2
654,654,0,20,-71,2
655,655,0,-239,0,2
656,656,0,-18,59,2
657,657,0,237,-104,2
658,658,0,11,-115,2
659,659,0,-239,-65,2
660,660,0,-11,-48,2
661,661,0,240,118,2
662,662,0,8,187,2
663,663,0,-241,138,2
664,664,0,-4,-46,2
665,665,0,239,-212,2
666,666,0,1,-95,2
667,667,0,-239,-26,2
668,668,0,1,27,2
669,669,0,238,187,2
670,670,0,-3,48,2
671,671,0,-240,-49,2
672,672,0,4,-63,2
673,673,0,239,-42,2
674,674,0,-6,50,2
675,675,0,-242,-18,2
676,676,0,9,-66,2
677,677,0,238,4,2
678,678,0,-15,8,2
679,679,0,-242,-10,2
680,680,0,18,36,2
681,681,0,238,113,2
682,682,0,-27,-36,2
683,683,0,-238,-48,2
684,684,0,27,122,2
685,685,0,236,18,2
686,686,0,-33,-148,2
687,687,0,-234,-130,2
688,688,0,39,-58,2
689,689,0,231,145,2
690,690,0,-43,90,2
691,691,0,-231,11,2
692,692,0,46,-56,2
693,693,0,229,-154,2
694,694,0,-52,194,2
695,695,0,-230,146,2
696,696,0,53,-199,2
697,697,0,227,-10,2
698,698,0,-56,48,2
699,699,0,-231,-138,2
700,700,0,58,17,2
701,701,0,230,152,2
702,702,0,-64,85,2
703,703,0,-231,-91,2
704,704,0,67,-131,2
705,705,0,228,-36,2
706,706,0,-75,-44,2
707,707,0,-226,128,2
708,708,0,78,135,2
709,709,0,222,-21,2
710,710,0,-85,-115,2
711,711,0,-221,24,2
712,712,0,85,61,2
713,713,0,216,-22,2
714,714,0,-94,-10,2
715,715,0,-216,-141,2
716,716,0,97,-21,2
717,717,0,213,94,2
718,718,0,-106,78,2
719,719,0,-214,42,2
720,720,0,106,-95,2
721,721,0,209,-36,2
722,722,0,-111,-8,2
723,723,0,-209,67,2
724,724,0,112,-16,2
725,725,0,207,-91,2
726,726,0,-118,146,2
727,727,0,-206,20,2
728,728,0,120,-52,2
729,729,0,202,-65,2
730,730,0,-126,-8,2
731,731,0,-203,-1,2
732,732,0,126,-10,2
733,733,0,198,125,2
734,734,0,-131,-25,2
735,735,0,-196,-42,2
736,736,0,131,-25,2
737,737,0,195,-1,2
738,738,0,-139,116,2
739,739,0,-195,-38,2
740,740,0,141,-143,2
741,741,0,189,0,2
742,742,0,-146,93,2
743,743,0,-190,63,2
744,744,0,148,23,2
745,745,0,184,-84,2
746,746,0,-155,-12,2
747,747,0,-182,52,2
748,748,0,154,-63,2
749,749,0,179,8,2
750,750,0,-159,-7,2
751,751,0,-178,-78,2
752,752,0,161,-43,2
753,753,0,174,-26,2
754,754,0,-164,216,2
755,755,0,-173,192,2
756,756,0,164,-3,2
757,757,0,167,-111,2
758,758,0,-172,-172,2
759,759,0,-167,-129,2
760,760,0,171,10,2
761,761,0,162,24,2
762,762,0,-176,-34,2
763,763,0,-162,102,2
764,764,0,179,100,2
765,765,0,157,-21,2
766,766,0,-182,53,2
767,767,0,-157,115,2
768,768,0,183,-55,2
769,769,0,152,-47,2
770,770,0,-189,-50,2
771,771,0,-149,-188,2
772,772,0,189,-53,2
773,773,0,142,17,2
774,774,0,-192,125,2
775,775,0,-141,84,2
776,776,0,192,-165,2
777,777,0,138,90,2
778,778,0,-195,165,2
779,779,0,-134,-24,2
780,780,0,198,118,2
781,781,0,132,-138,2
782,782,0,-203,-185,2
783,783,0,-130,38,2
784,784,0,202,20,2
785,785,0,126,-53,2
786,786,0,-207,-87,2
787,787,0,-123,108,2
788,788,0,206,139,2
789,789,0,116,-21,2
790,790,0,-208,27,2
791,791,0,-117,-33,2
792,792,0,209,-117,2
793,793,0,113,0,2
794,794,0,-215,8,2
795,795,0,-110,7,2
796,796,0,212,-48,2
797,797,0,106,126,2
798,798,0,-217,87,2
799,799,0,-103,-27,2
800,800,0,218,40,2
801,801,0,98,-224,2
802,802,0,-221,-97,2
803,803,0,-96,2,2
804,804,0,221,87,2
805,805,0,91,165,2
806,806,0,-224,-135,2
807,807,0,-89,7,2
808,808,0,223,134,2
809,809,0,85,-17,2
810,810,0,-226,-14,2
811,811,0,-83,-91,2
812,812,0,226,-114,2
813,813,0,76,2,2
814,814,0,-227,154,2
815,815,0,-74,10,2
816,816,0,229,-151,2
817,817,0,68,52,2
818,818,0,-230,77,2
819,819,0,-66,54,2
820,820,0,229,-30,2
821,821,0,60,-39,2
822,822,0,-232,10,2
823,823,0,-59,-53,2
824,824,0,233,4,2
825,825,0,56,-64,2
826,826,0,-236,-31,2
827,827,0,-55,-15,2
828,828,0,234,98,2
829,829,0,47,170,2
830,830,0,-239,-23,2
831,831,0,-46,-65,2
832,832,0,237,-32,2
833,833,0,41,-100,2
834,834,0,-236,-53,2
835,835,0,-41,58,2
836,836,0,234,102,2
837,837,0,39,47,2
838,838,0,-239,-35,2
839,839,0,-37,-131,2
840,840,0,239,-65,2
841,841,0,30,134,2
842,842,0,-241,99,2
843,843,0,-27,-67,2
844,844,0,240,-55,2
845,845,0,20,63,2
846,846,0,-239,67,2
847,847,0,-19,-71,2
848,848,0,240,-192,2
849,849,0,15,19,2
850,850,0,-240,150,2
851,851,0,-13,42,2
852,852,0,240,8,2
853,853,0,5,-52,2
854,854,0,-245,20,2
855,855,0,-4,13,2
856,856,0,241,-67,2
857,857,0,-2,-5,2
858,858,0,-240,-17,2
859,859,0,3,-75,2
860,860,0,238,31,2
861,861,0,-7,109,2
862,862,0,-240,71,2
863,863,0,7,-35,2
864,864,0,238,-89,2
865,865,0,-13,-49,2
866,866,0,-240,119,2
867,867,0,13,86,2
868,868,0,238,-164,2
869,869,0,-17,-55,2
870,870,0,-241,14,2
871,871,0,20,-13,2
872,872,0,239,166,2
873,873,0,-25,-70,2
874,874,0,-240,-42,2
875,875,0,27,38,2
876,876,0,237,-79,2
877,877,0,-32,64,2
878,878,0,-236,-40,2
879,879,0,35,29,2
880,880,0,233,62,2
881,881,0,-40,-31,2
882,882,0,-237,-1,2
883,883,0,43,18,2
884,884,0,233,-94,2
885,885,0,-49,-46,2
886,886,0,-233,6,2
887,887,0,50,-41,2
888,888,0,233,177,2
889,889,0,-54,89,2
890,890,0,-232,-76,2
891,891,0,55,6,2
892,892,0,231,-43,2
893,893,0,-59,-54,2
894,894,0,-234,-104,2
895,895,0,61,16,2
896,896,0,227,126,2
897,897,0,-68,-4,2
898,898,0,-230,-4,2
899,899,0,68,-151,2
900,900,0,226,98,2
901,901,0,-76,152,2
902,902,0,-226,-142,2
903,903,0,79,62,2
904,904,0,221,52,2
905,905,0,-85,-157,2
906,906,0,-222,-95,2
907,907,0,89,56,2
908,908,0,218,11,2
909,909,0,-95,-106,2
910,910,0,-217,98,2
911,911,0,99,206,2
912,912,0,213,46,2
913,913,0,-106,-123,2
914,914,0,-215,-64,2
915,915,0,110,47,2
916,916,0,208,-43,2
917,917,0,-116,16,2
918,918,0,-207,-67,2
919,919,0,118,-120,2
920,920,0,202,115,2
921,921,0,-123,5,2
922,922,0,-203,-30,2
923,923,0,121,20,2
924,924,0,202,175,2
925,925,0,-125,121,2
926,926,0,-201,-101,2
927,927,0,124,-76,2
928,928,0,199,-54,2
929,929,0,-130,-45,2
930,930,0,-201,-121,2
931,931,0,131,28,2
932,932,0,195,102,2
933,933,0,-137,-130,2
934,934,0,-195,91,2
935,935,0,138,271,2
936,936,0,192,28,2
937,937,0,-142,-162,2
938,938,0,-192,-114,2
939,939,0,143,-20,2
940,940,0,187,-35,2
941,941,0,-146,36,2
942,942,0,-187,7,2
943,943,0,150,-106,2
944,944,0,182,56,2
945,945,0,-160,129,2
946,946,0,-180,97,2
947,947,0,158,-71,2
948,948,0,177,10,2
949,949,0,-161,44,2
950,950,0,-176,-132,2
951,951,0,163,-56,2
952,952,0,171,8,2
953,953,0,-167,49,2
954,954,0,-172,-114,2
955,955,0,169,4,2
956,956,0,168,21,2
957,957,0,-172,-27,2
958,958,0,-166,186,2
959,959,0,174,54,2
960,960,0,162,29,2
961,961,0,-180,-63,2
962,962,0,-160,-6,2
963,963,0,181,-59,2
964,964,0,154,-144,2
965,965,0,-186,65,2
966,966,0,-153,-64,2
967,967,0,185,36,2
968,968,0,147,31,2
969,969,0,-189,75,2
970,970,0,-144,4,2
971,971,0,189,-244,2
972,972,0,139,220,2
973,973,0,-195,113,2
974,974,0,-137,-53,2
975,975,0,198,-11,2
976,976,0,135,-122,2
977,977,0,-200,127,2
978,978,0,-133,20,2
979,979,0,202,-73,2
980,980,0,128,-136,2
981,981,0,-206,-148,2
982,982,0,-126,218,2
983,983,0,207,159,2
984,984,0,120,-70,2
985,985,0,-209,-15,2
986,986,0,-116,-66,2
987,987,0,209,32,2
988,988,0,113,96,2
989,989,0,-213,-110,2
990,990,0,-109,-47,2
991,991,0,211,157,2
992,992,0,106,-16,2
993,993,0,-216,-118,2
994,994,0,-103,72,2
995,995,0,216,-1,2
996,996,0,100,-108,2
997,997,0,-218,-74,2
998,998,0,-100,45,2
999,999,0,217,32,2
1000,1000,0,95,33,2
1001,1001,0,-221,121,2
1002,1002,0,-93,1,2
1003,1003,0,221,-77,2
1004,1004,0,89,104,2
1005,1005,0,-225,-18,2
1006,1006,0,-86,-112,2
1007,1007,0,224,-69,2
1008,1008,0,80,-64,2
1009,1009,0,-228,79,2
1010,1010,0,-79,-47,2
