Sample in Buffer,Sample in Window,TRIGGER,sig_AD2_IN[9:0],sig_AD1_IN[9:0],LED_IO_OBUF[2:0]
0,0,0,3,32,2
1,1,0,68,10,2
2,2,0,25,-160,2
3,3,0,-66,-35,2
4,4,0,-49,91,2
5,5,0,56,-16,2
6,6,0,54,10,2
7,7,0,-36,-15,2
8,8,0,-66,-69,2
9,9,0,1,71,2
10,10,0,67,62,2
11,11,0,32,58,2
12,12,0,-71,-24,2
13,13,0,-61,-126,2
14,14,0,65,13,2
15,15,0,84,-5,2
16,16,0,-58,-12,2
17,17,0,-100,7,2
18,18,0,41,0,2
19,19,0,109,57,2
20,20,0,-27,-103,2
21,21,0,-109,36,2
22,22,0,17,85,2
23,23,0,102,-116,2
24,24,0,-7,56,2
25,25,0,-96,114,2
26,26,0,-2,-3,2
27,27,0,85,-77,2
28,28,0,4,-111,2
29,29,0,-77,-44,2
30,30,0,-2,-57,2
31,31,0,74,29,2
32,32,0,9,140,2
33,33,0,-93,95,2
34,34,0,-20,107,2
35,35,0,120,-61,2
36,36,0,25,-144,2
37,37,0,-159,-185,2
38,38,0,-32,87,2
39,39,0,189,92,2
40,40,0,23,-159,2
41,41,0,-213,215,2
42,42,0,-19,3,2
43,43,0,224,-131,2
44,44,0,6,146,2
45,45,0,-225,-67,2
46,46,0,-4,1,2
47,47,0,207,-2,2
48,48,0,-4,18,2
49,49,0,-188,73,2
50,50,0,22,-139,2
51,51,0,161,30,2
52,52,0,-51,11,2
53,53,0,-130,-41,2
54,54,0,82,-30,2
55,55,0,99,-19,2
56,56,0,-107,8,2
57,57,0,-64,20,2
58,58,0,116,-3,2
59,59,0,35,-41,2
60,60,0,-118,150,2
61,61,0,-17,116,2
62,62,0,95,42,2
63,63,0,8,-123,2
64,64,0,-59,-149,2
65,65,0,-14,27,2
66,66,0,11,-126,2
67,67,0,25,89,2
68,68,0,26,5,2
69,69,0,-45,-156,2
70,70,0,-61,184,2
71,71,0,55,123,2
72,72,0,83,-93,2
73,73,0,-52,38,2
74,74,0,-88,77,2
75,75,0,34,-31,2
76,76,0,74,-3,2
77,77,0,0,-137,2
78,78,0,-54,-71,2
79,79,0,-44,48,2
80,80,0,29,5,2
81,81,0,97,123,2
82,82,0,-11,2,2
83,83,0,-130,-69,2
84,84,0,-7,7,2
85,85,0,144,-62,2
86,86,0,26,27,2
87,87,0,-136,91,2
88,88,0,-59,36,2
89,89,0,112,-131,2
90,90,0,101,-49,2
91,91,0,-91,50,2
92,92,0,-148,-2,2
93,93,0,75,117,2
94,94,0,169,-8,2
95,95,0,-82,-72,2
96,96,0,-164,8,2
97,97,0,90,-104,2
98,98,0,112,74,2
99,99,0,-85,150,2
100,100,0,-44,-100,2
101,101,0,61,-53,2
102,102,0,-28,-22,2
103,103,0,-12,-55,2
104,104,0,95,95,2
105,105,0,-50,-5,2
106,106,0,-119,-57,2
107,107,0,111,103,2
108,108,0,100,-16,2
109,109,0,-142,-65,2
110,110,0,-52,99,2
111,111,0,134,30,2
112,112,0,-15,49,2
113,113,0,-88,7,2
114,114,0,80,-200,2
115,115,0,-1,-85,2
116,116,0,-120,-82,2
117,117,0,92,20,2
118,118,0,124,211,2
119,119,0,-181,24,2
120,120,0,-102,-29,2
121,121,0,216,94,2
122,122,0,59,9,2
123,123,0,-213,-40,2
124,124,0,-27,34,2
125,125,0,168,-66,2
126,126,0,7,-123,2
127,127,0,-113,26,2
128,128,0,-17,-27,2
129,129,0,55,-73,2
130,130,0,39,63,2
131,131,0,-35,-58,2
132,132,0,-63,121,2
133,133,0,52,195,2
134,134,0,65,-23,2
135,135,0,-106,89,2
136,136,0,-21,-134,2
137,137,0,159,-224,2
138,138,0,-51,23,2
139,139,0,-192,-99,2
140,140,0,139,-65,2
141,141,0,189,242,2
142,142,0,-215,178,2
143,143,0,-158,-66,2
144,144,0,253,-23,2
145,145,0,112,59,2
146,146,0,-237,-150,2
147,147,0,-70,-102,2
148,148,0,188,54,2
149,149,0,46,61,2
150,150,0,-107,-30,2
151,151,0,-60,-108,2
152,152,0,26,70,2
153,153,0,92,55,2
154,154,0,26,12,2
155,155,0,-146,128,2
156,156,0,-50,-7,2
157,157,0,183,-32,2
158,158,0,45,-24,2
159,159,0,-192,-234,2
160,160,0,-38,6,2
161,161,0,174,81,2
162,162,0,34,-1,2
163,163,0,-134,69,2
164,164,0,-48,-68,2
165,165,0,94,165,2
166,166,0,68,118,2
167,167,0,-82,-223,2
168,168,0,-92,-83,2
169,169,0,79,41,2
170,170,0,103,48,2
171,171,0,-106,-57,2
172,172,0,-98,-38,2
173,173,0,120,152,2
174,174,0,58,29,2
175,175,0,-126,-47,2
176,176,0,-11,-81,2
177,177,0,96,-123,2
178,178,0,-36,117,2
179,179,0,-37,120,2
180,180,0,59,-88,2
181,181,0,-49,-84,2
182,182,0,-50,81,2
183,183,0,133,101,2
184,184,0,19,-69,2
185,185,0,-208,-135,2
186,186,0,27,61,2
187,187,0,235,177,2
188,188,0,-82,-40,2
189,189,0,-228,-98,2
190,190,0,113,-59,2
191,191,0,177,-95,2
192,192,0,-119,11,2
193,193,0,-107,250,2
194,194,0,94,65,2
195,195,0,28,-248,2
196,196,0,-42,-94,2
197,197,0,33,114,2
198,198,0,-20,124,2
199,199,0,-63,-29,2
200,200,0,66,-109,2
201,201,0,56,49,2
202,202,0,-84,22,2
203,203,0,-22,38,2
204,204,0,63,11,2
205,205,0,-10,-71,2
206,206,0,-17,-61,2
207,207,0,40,-42,2
208,208,0,-49,79,2
209,209,0,-49,45,2
210,210,0,106,-52,2
211,211,0,36,-39,2
212,212,0,-146,39,2
213,213,0,-17,17,2
214,214,0,146,40,2
215,215,0,-23,86,2
216,216,0,-117,4,2
217,217,0,58,-139,2
218,218,0,68,14,2
219,219,0,-87,51,2
220,220,0,-15,-121,2
221,221,0,98,-50,2
222,222,0,-32,95,2
223,223,0,-97,16,2
224,224,0,50,-133,2
225,225,0,85,16,2
226,226,0,-41,169,2
227,227,0,-81,130,2
228,228,0,-7,-27,2
229,229,0,86,-136,2
230,230,0,66,-70,2
231,231,0,-105,-153,2
232,232,0,-119,106,2
233,233,0,130,202,2
234,234,0,140,-105,2
235,235,0,-144,36,2
236,236,0,-140,47,2
237,237,0,128,-129,2
238,238,0,124,-68,2
239,239,0,-78,80,2
240,240,0,-91,69,2
241,241,0,2,-144,2
242,242,0,65,-31,2
243,243,0,74,82,2
244,244,0,-61,70,2
245,245,0,-141,110,2
246,246,0,74,-102,2
247,247,0,182,15,2
248,248,0,-108,-68,2
249,249,0,-182,-114,2
250,250,0,140,95,2
251,251,0,151,-151,2
252,252,0,-162,70,2
253,253,0,-108,143,2
254,254,0,164,-41,2
255,255,0,71,60,2
256,256,0,-151,40,2
257,257,0,-60,-38,2
258,258,0,120,-73,2
259,259,0,58,-54,2
260,260,0,-95,-44,2
261,261,0,-85,-29,2
262,262,0,65,32,2
263,263,0,113,116,2
264,264,0,-48,13,2
265,265,0,-134,-41,2
266,266,0,38,39,2
267,267,0,128,-10,2
268,268,0,-34,-86,2
269,269,0,-106,95,2
270,270,0,34,23,2
271,271,0,57,-163,2
272,272,0,-29,135,2
273,273,0,4,35,2
274,274,0,20,-126,2
275,275,0,-68,28,2
276,276,0,-11,37,2
277,277,0,118,36,2
278,278,0,4,-164,2
279,279,0,-133,-104,2
280,280,0,-2,150,2
281,281,0,125,201,2
282,282,0,10,88,2
283,283,0,-98,-140,2
284,284,0,-40,-108,2
285,285,0,53,-41,2
286,286,0,88,104,2
287,287,0,-23,-52,2
288,288,0,-127,-158,2
289,289,0,6,211,2
290,290,0,160,-33,2
291,291,0,-18,-77,2
292,292,0,-159,62,2
293,293,0,31,82,2
294,294,0,131,68,2
295,295,0,-58,-157,2
296,296,0,-80,44,2
297,297,0,65,74,2
298,298,0,26,-97,2
299,299,0,-59,-96,2
300,300,0,14,40,2
301,301,0,34,76,2
302,302,0,-32,-70,2
303,303,0,-8,-27,2
304,304,0,23,47,2
305,305,0,-18,39,2
306,306,0,8,54,2
307,307,0,33,32,2
308,308,0,-56,-74,2
309,309,0,-34,-165,2
310,310,0,87,91,2
311,311,0,28,66,2
312,312,0,-93,-185,2
313,313,0,-11,200,2
314,314,0,70,23,2
315,315,0,2,-151,2
316,316,0,-12,98,2
317,317,0,0,-13,2
318,318,0,-72,53,2
319,319,0,29,-23,2
320,320,0,148,-12,2
321,321,0,-85,10,2
322,322,0,-210,-156,2
323,323,0,154,15,2
324,324,0,216,26,2
325,325,0,-213,42,2
326,326,0,-175,81,2
327,327,0,245,-9,2
328,328,0,87,61,2
329,329,0,-245,-103,2
330,330,0,10,11,2
331,331,0,201,-111,2
332,332,0,-121,-98,2
333,333,0,-131,265,2
334,334,0,200,-28,2
335,335,0,44,-62,2
336,336,0,-246,27,2
337,337,0,27,-85,2
338,338,0,248,-41,2
339,339,0,-86,-39,2
340,340,0,-230,245,2
341,341,0,112,95,2
342,342,0,202,-144,2
343,343,0,-109,-5,2
344,344,0,-188,-29,2
345,345,0,83,-62,2
346,346,0,180,-117,2
347,347,0,-49,-34,2
348,348,0,-194,123,2
349,349,0,16,87,2
350,350,0,209,53,2
351,351,0,6,-13,2
352,352,0,-216,45,2
353,353,0,-27,-24,2
354,354,0,222,-156,2
355,355,0,47,34,2
356,356,0,-217,11,2
357,357,0,-65,-83,2
358,358,0,203,44,2
359,359,0,69,31,2
360,360,0,-183,-55,2
361,361,0,-69,77,2
362,362,0,149,102,2
363,363,0,52,-46,2
364,364,0,-119,-64,2
365,365,0,-25,58,2
366,366,0,69,-51,2
367,367,0,-1,-15,2
368,368,0,-13,-42,2
369,369,0,27,-76,2
370,370,0,-43,71,2
371,371,0,-35,-13,2
372,372,0,96,168,2
373,373,0,26,49,2
374,374,0,-128,-201,2
375,375,0,-6,70,2
376,376,0,135,-40,2
377,377,0,-25,36,2
378,378,0,-122,70,2
379,379,0,54,-198,2
380,380,0,80,26,2
381,381,0,-75,53,2
382,382,0,-32,28,2
383,383,0,78,1,2
384,384,0,-18,-84,2
385,385,0,-56,58,2
386,386,0,48,21,2
387,387,0,16,-33,2
388,388,0,-44,-92,2
389,389,0,19,70,2
390,390,0,8,202,2
391,391,0,-40,30,2
392,392,0,50,-25,2
393,393,0,41,-145,2
394,394,0,-120,-190,2
395,395,0,-22,5,2
396,396,0,176,69,2
397,397,0,-22,34,2
398,398,0,-207,-7,2
399,399,0,76,23,2
400,400,0,196,27,2
401,401,0,-125,72,2
402,402,0,-153,28,2
403,403,0,151,-13,2
404,404,0,84,59,2
405,405,0,-142,-46,2
406,406,0,-9,-99,2
407,407,0,92,-104,2
408,408,0,-50,-53,2
409,409,0,-22,-18,2
410,410,0,78,100,2
411,411,0,-67,105,2
412,412,0,-62,-56,2
413,413,0,148,33,2
414,414,0,22,35,2
415,415,0,-194,157,2
416,416,0,27,71,2
417,417,0,200,-231,2
418,418,0,-68,-82,2
419,419,0,-178,15,2
420,420,0,82,-109,2
421,421,0,130,-75,2
422,422,0,-51,119,2
423,423,0,-93,22,2
424,424,0,-13,45,2
425,425,0,83,175,2
426,426,0,86,7,2
427,427,0,-101,-52,2
428,428,0,-142,-76,2
429,429,0,153,43,2
430,430,0,151,-57,2
431,431,0,-207,-203,2
432,432,0,-123,93,2
433,433,0,240,-8,2
434,434,0,55,-6,2
435,435,0,-247,154,2
436,436,0,18,-6,2
437,437,0,208,14,2
438,438,0,-103,-63,2
439,439,0,-145,20,2
440,440,0,146,76,2
441,441,0,68,-42,2
442,442,0,-150,-19,2
443,443,0,-12,-45,2
444,444,0,118,-53,2
445,445,0,-22,-37,2
446,446,0,-78,-51,2
447,447,0,31,-5,2
448,448,0,32,100,2
449,449,0,-11,145,2
450,450,0,-13,53,2
451,451,0,-8,-126,2
452,452,0,1,-9,2
453,453,0,16,125,2
454,454,0,-10,-36,2
455,455,0,-25,-196,2
456,456,0,12,-19,2
457,457,0,12,8,2
458,458,0,-7,-68,2
459,459,0,-8,111,2
460,460,0,-11,27,2
461,461,0,14,37,2
462,462,0,28,79,2
463,463,0,-33,-34,2
464,464,0,-43,-28,2
465,465,0,69,-64,2
466,466,0,38,39,2
467,467,0,-106,69,2
468,468,0,-27,-104,2
469,469,0,117,-9,2
470,470,0,0,6,2
471,471,0,-120,-118,2
472,472,0,18,-36,2
473,473,0,83,120,2
474,474,0,-19,88,2
475,475,0,-48,-29,2
476,476,0,0,5,2
477,477,0,12,53,2
478,478,0,32,-31,2
479,479,0,12,-38,2
480,480,0,-79,34,2
481,481,0,-12,-81,2
482,482,0,103,-34,2
483,483,0,-3,98,2
484,484,0,-125,10,2
485,485,0,27,-26,2
486,486,0,114,-41,2
487,487,0,-49,-149,2
488,488,0,-93,12,2
489,489,0,62,93,2
490,490,0,46,149,2
491,491,0,-62,26,2
492,492,0,-1,-128,2
493,493,0,34,149,2
494,494,0,-51,29,2
495,495,0,12,-147,2
496,496,0,93,-96,2
497,497,0,-80,-8,2
498,498,0,-124,5,2
499,499,0,147,-42,2
500,500,0,129,159,2
501,501,0,-202,35,2
502,502,0,-114,-72,2
503,503,0,229,-55,2
504,504,0,72,-13,2
505,505,0,-221,42,2
506,506,0,-31,30,2
507,507,0,168,144,2
508,508,0,-10,-8,2
509,509,0,-92,-167,2
510,510,0,31,-71,2
511,511,0,14,-18,2
512,512,0,-24,93,2
513,513,0,44,115,2
514,514,0,0,60,2
515,515,0,-68,-82,2
516,516,0,35,-224,2
517,517,0,38,-100,2
518,518,0,-74,45,2
519,519,0,22,141,2
520,520,0,68,212,2
521,521,0,-102,38,2
522,522,0,-65,-92,2
523,523,0,167,-60,2
524,524,0,38,-138,2
525,525,0,-207,50,2
526,526,0,-26,70,2
527,527,0,208,35,2
528,528,0,19,14,2
529,529,0,-194,-184,2
530,530,0,-41,-61,2
531,531,0,156,-96,2
532,532,0,71,177,2
533,533,0,-119,275,2
534,534,0,-113,-132,2
535,535,0,74,20,2
536,536,0,136,-25,2
537,537,0,-46,-134,2
538,538,0,-165,27,2
539,539,0,17,-2,2
540,540,0,170,87,2
541,541,0,-1,-19,2
542,542,0,-172,-85,2
543,543,0,-8,-62,2
544,544,0,154,35,2
545,545,0,7,94,2
546,546,0,-135,43,2
547,547,0,-3,-21,2
548,548,0,108,-98,2
549,549,0,-16,56,2
550,550,0,-77,103,2
551,551,0,28,-41,2
552,552,0,48,-110,2
553,553,0,-45,-44,2
554,554,0,-26,2,2
555,555,0,52,92,2
556,556,0,-3,87,2
557,557,0,-52,-37,2
558,558,0,14,-39,2
559,559,0,44,-141,2
560,560,0,-29,-34,2
561,561,0,-35,154,2
562,562,0,38,77,2
563,563,0,28,-4,2
564,564,0,-45,-74,2
565,565,0,-26,-16,2
566,566,0,50,28,2
567,567,0,28,-28,2
568,568,0,-68,47,2
569,569,0,-36,-10,2
570,570,0,90,-2,2
571,571,0,49,-46,2
572,572,0,-110,-120,2
573,573,0,-66,57,2
574,574,0,130,7,2
575,575,0,81,28,2
576,576,0,-148,95,2
577,577,0,-88,58,2
578,578,0,154,4,2
579,579,0,81,-75,2
580,580,0,-154,65,2
581,581,0,-69,-79,2
582,582,0,133,-116,2
583,583,0,41,-70,2
584,584,0,-108,3,2
585,585,0,-8,120,2
586,586,0,72,71,2
587,587,0,-25,61,2
588,588,0,-40,-64,2
589,589,0,50,-105,2
590,590,0,13,42,2
591,591,0,-63,32,2
592,592,0,-9,-34,2
593,593,0,62,17,2
594,594,0,15,16,2
595,595,0,-53,-14,2
596,596,0,-38,51,2
597,597,0,38,-45,2
598,598,0,63,-194,2
599,599,0,-31,146,2
600,600,0,-98,195,2
601,601,0,35,-97,2
602,602,0,109,-149,2
603,603,0,-45,-54,2
604,604,0,-102,141,2
605,605,0,55,22,2
606,606,0,72,-123,2
607,607,0,-64,141,2
608,608,0,-29,126,2
609,609,0,60,-238,2
610,610,0,-12,4,2
611,611,0,-52,62,2
612,612,0,32,-127,2
613,613,0,26,69,2
614,614,0,-38,7,2
615,615,0,-5,9,2
616,616,0,6,76,2
617,617,0,-11,31,2
618,618,0,43,19,2
619,619,0,9,-99,2
620,620,0,-97,-64,2
621,621,0,-3,-40,2
622,622,0,136,-19,2
623,623,0,-19,33,2
624,624,0,-146,21,2
625,625,0,26,44,2
626,626,0,132,-40,2
627,627,0,-34,84,2
628,628,0,-101,89,2
629,629,0,27,-60,2
630,630,0,56,-5,2
631,631,0,-19,-100,2
632,632,0,-20,-134,2
633,633,0,18,12,2
634,634,0,-13,184,2
635,635,0,-28,25,2
636,636,0,32,-90,2
637,637,0,57,2,2
638,638,0,-45,6,2
639,639,0,-104,28,2
640,640,0,58,-26,2
641,641,0,157,46,2
642,642,0,-78,-80,2
643,643,0,-190,-98,2
644,644,0,107,140,2
645,645,0,190,15,2
646,646,0,-132,48,2
647,647,0,-153,-82,2
648,648,0,134,-19,2
649,649,0,80,156,2
650,650,0,-112,6,2
651,651,0,-7,-71,2
652,652,0,60,-194,2
653,653,0,-60,-58,2
654,654,0,4,-18,2
655,655,0,98,140,2
656,656,0,-79,177,2
657,657,0,-97,-155,2
658,658,0,121,7,2
659,659,0,56,108,2
660,660,0,-132,27,2
661,661,0,-5,-16,2
662,662,0,98,3,2
663,663,0,-39,-30,2
664,664,0,-39,-171,2
665,665,0,52,-95,2
666,666,0,-34,27,2
667,667,0,-36,147,2
668,668,0,84,50,2
669,669,0,-7,24,2
670,670,0,-110,-68,2
671,671,0,54,-83,2
672,672,0,90,185,2
673,673,0,-78,14,2
674,674,0,-51,-107,2
675,675,0,73,103,2
676,676,0,9,-2,2
677,677,0,-35,-64,2
678,678,0,13,-172,2
679,679,0,-20,-135,2
680,680,0,-12,160,2
681,681,0,73,105,2
682,682,0,-12,14,2
683,683,0,-99,117,2
684,684,0,37,7,2
685,685,0,101,-38,2
686,686,0,-60,-46,2
687,687,0,-89,-53,2
688,688,0,55,-15,2
689,689,0,73,-73,2
690,690,0,-39,-22,2
691,691,0,-71,-26,2
692,692,0,3,136,2
693,693,0,71,85,2
694,694,0,17,-69,2
695,695,0,-82,69,2
696,696,0,-26,-47,2
697,697,0,80,35,2
698,698,0,13,80,2
699,699,0,-53,-86,2
700,700,0,6,-61,2
701,701,0,2,-146,2
702,702,0,-22,-76,2
703,703,0,55,55,2
704,704,0,17,110,2
705,705,0,-117,171,2
706,706,0,2,1,2
707,707,0,135,-58,2
708,708,0,-33,103,2
709,709,0,-139,-92,2
710,710,0,68,-139,2
711,711,0,97,91,2
712,712,0,-100,-156,2
713,713,0,-46,-147,2
714,714,0,116,190,2
715,715,0,-3,142,2
716,716,0,-124,-24,2
717,717,0,42,71,2
718,718,0,137,-25,2
719,719,0,-73,-56,2
720,720,0,-156,69,2
721,721,0,94,-145,2
722,722,0,167,-73,2
723,723,0,-113,107,2
724,724,0,-168,-79,2
725,725,0,115,39,2
726,726,0,149,-30,2
727,727,0,-112,-27,2
728,728,0,-117,163,2
729,729,0,93,-86,2
730,730,0,61,4,2
731,731,0,-52,131,2
732,732,0,-24,-73,2
733,733,0,0,-72,2
734,734,0,-3,43,2
735,735,0,46,-2,2
736,736,0,0,-174,2
737,737,0,-79,-8,2
738,738,0,21,62,2
739,739,0,74,30,2
740,740,0,-68,33,2
741,741,0,-33,-13,2
742,742,0,94,85,2
743,743,0,-27,1,2
744,744,0,-106,-74,2
745,745,0,87,67,2
746,746,0,81,81,2
747,747,0,-139,-112,2
748,748,0,-52,-116,2
749,749,0,144,24,2
750,750,0,16,38,2
751,751,0,-133,25,2
752,752,0,0,54,2
753,753,0,91,-11,2
754,754,0,-7,-181,2
755,755,0,-40,-95,2
756,756,0,-14,83,2
757,757,0,-5,170,2
758,758,0,39,143,2
759,759,0,38,19,2
760,760,0,-63,-29,2
761,761,0,-56,-182,2
762,762,0,73,-26,2
763,763,0,65,99,2
764,764,0,-65,-101,2
765,765,0,-73,38,2
766,766,0,48,-162,2
767,767,0,78,-30,2
768,768,0,-27,270,2
769,769,0,-83,-96,2
770,770,0,11,-3,2
771,771,0,84,84,2
772,772,0,-3,-58,2
773,773,0,-72,31,2
774,774,0,3,-58,2
775,775,0,50,125,2
776,776,0,-15,20,2
777,777,0,-11,-176,2
778,778,0,18,30,2
779,779,0,-32,55,2
780,780,0,-24,-39,2
781,781,0,68,-138,2
782,782,0,11,7,2
783,783,0,-92,29,2
784,784,0,0,63,2
785,785,0,88,111,2
786,786,0,-13,-26,2
787,787,0,-70,45,2
788,788,0,7,-8,2
789,789,0,30,-88,2
790,790,0,4,-29,2
791,791,0,14,-23,2
792,792,0,-32,-76,2
793,793,0,-53,-24,2
794,794,0,64,147,2
795,795,0,71,23,2
796,796,0,-89,11,2
797,797,0,-84,82,2
798,798,0,90,-23,2
799,799,0,78,-105,2
800,800,0,-63,-48,2
801,801,0,-75,-24,2
802,802,0,23,-10,2
803,803,0,67,96,2
804,804,0,32,-10,2
805,805,0,-76,28,2
806,806,0,-79,6,2
807,807,0,82,-64,2
808,808,0,114,95,2
809,809,0,-85,58,2
810,810,0,-127,-12,2
811,811,0,77,-103,2
812,812,0,125,-92,2
813,813,0,-57,41,2
814,814,0,-104,25,2
815,815,0,22,3,2
816,816,0,72,-88,2
817,817,0,17,-2,2
818,818,0,-45,127,2
819,819,0,-45,-46,2
820,820,0,16,59,2
821,821,0,65,183,2
822,822,0,3,-84,2
823,823,0,-60,-169,2
824,824,0,-13,-88,2
825,825,0,32,-55,2
826,826,0,26,94,2
827,827,0,1,167,2
828,828,0,-50,-73,2
829,829,0,-40,-121,2
830,830,0,80,88,2
831,831,0,54,9,2
832,832,0,-111,-15,2
833,833,0,-43,89,2
834,834,0,138,12,2
835,835,0,2,-82,2
836,836,0,-128,-83,2
837,837,0,55,29,2
838,838,0,94,55,2
839,839,0,-115,-15,2
840,840,0,-41,-31,2
841,841,0,125,126,2
842,842,0,-15,77,2
843,843,0,-96,-150,2
844,844,0,50,-169,2
845,845,0,29,-23,2
846,846,0,-44,49,2
847,847,0,48,63,2
848,848,0,-7,86,2
849,849,0,-105,50,2
850,850,0,74,-12,2
851,851,0,119,-41,2
852,852,0,-162,28,2
853,853,0,-91,-48,2
854,854,0,212,24,2
855,855,0,19,47,2
856,856,0,-211,-182,2
857,857,0,62,-92,2
858,858,0,164,68,2
859,859,0,-148,7,2
860,860,0,-82,32,2
861,861,0,194,70,2
862,862,0,-9,131,2
863,863,0,-206,1,2
864,864,0,88,-98,2
865,865,0,173,31,2
866,866,0,-141,-46,2
867,867,0,-123,-48,2
868,868,0,147,74,2
869,869,0,56,-64,2
870,870,0,-128,-202,2
871,871,0,-12,47,2
872,872,0,77,191,2
873,873,0,-27,18,2
874,874,0,-31,-14,2
875,875,0,44,-2,2
876,876,0,1,7,2
877,877,0,-46,22,2
878,878,0,13,-117,2
879,879,0,44,1,2
880,880,0,-8,139,2
881,881,0,-51,-36,2
882,882,0,-10,-61,2
883,883,0,51,-93,2
884,884,0,20,-12,2
885,885,0,-79,108,2
886,886,0,-37,30,2
887,887,0,101,-27,2
888,888,0,28,-30,2
889,889,0,-124,37,2
890,890,0,-6,-18,2
891,891,0,133,-75,2
892,892,0,-16,28,2
893,893,0,-135,-42,2
894,894,0,21,50,2
895,895,0,122,135,2
896,896,0,-32,30,2
897,897,0,-101,-42,2
898,898,0,11,-144,2
899,899,0,73,27,2
900,900,0,2,37,2
901,901,0,-55,-131,2
902,902,0,-16,-5,2
903,903,0,18,49,2
904,904,0,23,-8,2
905,905,0,15,16,2
906,906,0,-30,1,2
907,907,0,-65,58,2
908,908,0,28,13,2
909,909,0,118,41,2
910,910,0,-38,101,2
911,911,0,-169,-19,2
912,912,0,47,16,2
913,913,0,177,-107,2
914,914,0,-61,-308,2
915,915,0,-168,-123,2
916,916,0,67,102,2
917,917,0,116,208,2
918,918,0,-44,129,2
919,919,0,-50,80,2
920,920,0,-6,-72,2
921,921,0,-9,-60,2
922,922,0,85,15,2
923,923,0,36,-75,2
924,924,0,-176,24,2
925,925,0,-24,53,2
926,926,0,236,23,2
927,927,0,-29,-94,2
928,928,0,-257,-202,2
929,929,0,91,73,2
930,930,0,224,127,2
931,931,0,-159,-28,2
932,932,0,-148,66,2
933,933,0,181,39,2
934,934,0,49,-11,2
935,935,0,-160,-36,2
936,936,0,28,-55,2
937,937,0,95,6,2
938,938,0,-82,6,2
939,939,0,-18,109,2
940,940,0,70,-16,2
941,941,0,-45,-79,2
942,942,0,-18,-118,2
943,943,0,56,-65,2
944,944,0,-62,105,2
945,945,0,-25,61,2
946,946,0,122,57,2
947,947,0,-50,-1,2
948,948,0,-135,56,2
949,949,0,137,-47,2
950,950,0,106,-69,2
951,951,0,-197,78,2
952,952,0,-47,-134,2
953,953,0,211,-63,2
954,954,0,-17,123,2
955,955,0,-185,14,2
956,956,0,62,-17,2
957,957,0,129,-5,2
958,958,0,-76,58,2
959,959,0,-73,-19,2
960,960,0,63,-79,2
961,961,0,27,37,2
962,962,0,-24,14,2
963,963,0,-16,82,2
964,964,0,-16,-35,2
965,965,0,20,-65,2
966,966,0,33,-27,2
967,967,0,-35,-164,2
968,968,0,-35,136,2
969,969,0,43,65,2
970,970,0,13,-36,2
971,971,0,-39,198,2
972,972,0,16,-10,2
973,973,0,24,-122,2
974,974,0,-42,-88,2
975,975,0,-16,-75,2
976,976,0,59,87,2
977,977,0,17,121,2
978,978,0,-79,6,2
979,979,0,-33,-54,2
980,980,0,100,49,2
981,981,0,55,-107,2
982,982,0,-124,-131,2
983,983,0,-89,81,2
984,984,0,146,25,2
985,985,0,103,68,2
986,986,0,-151,-33,2
987,987,0,-102,-15,2
988,988,0,126,146,2
989,989,0,75,-30,2
990,990,0,-67,23,2
991,991,0,-39,-27,2
992,992,0,-20,-152,2
993,993,0,-3,-12,2
994,994,0,123,-23,2
995,995,0,38,16,2
996,996,0,-228,163,2
997,997,0,-71,-53,2
998,998,0,306,-112,2
999,999,0,99,-43,2
1000,1000,0,-343,24,2
1001,1001,0,-135,123,2
1002,1002,0,346,58,2
1003,1003,0,156,37,2
1004,1004,0,-324,-10,2
1005,1005,0,-168,-9,2
1006,1006,0,265,-101,2
1007,1007,0,167,-123,2
1008,1008,0,-184,-33,2
1009,1009,0,-140,33,2
1010,1010,0,91,104,2
1011,1011,0,104,70,2
1012,1012,0,3,-7,2
1013,1013,0,-66,-49,2
1014,1014,0,-86,12,2
1015,1015,0,37,19,2
1016,1016,0,155,-82,2
1017,1017,0,-27,-25,2
1018,1018,0,-197,34,2
1019,1019,0,24,29,2
1020,1020,0,208,-9,2
1021,1021,0,-40,34,2
1022,1022,0,-188,44,2
1023,1023,0,66,-50,2
1024,1024,0,147,-4,2
1025,1025,0,-89,-37,2
1026,1026,0,-97,-7,2
1027,1027,0,94,32,2
1028,1028,0,42,-122,2
1029,1029,0,-81,-89,2
1030,1030,0,-5,132,2
1031,1031,0,45,41,2
1032,1032,0,-29,74,2
1033,1033,0,1,35,2
